time	V(Vin,Vc)	V(vc)	I(C1)
0.000000000000000e+000	0.000000e+000	0.000000e+000	0.000000e+000
9.999999960041972e-013	7.000000e+000	3.600823e-010	4.861111e-003
1.999999992008394e-012	7.000000e+000	7.201646e-010	6.481481e-003
1.006310719994779e-004	6.963858e+000	3.614184e-002	6.448017e-003
2.030310719994804e-004	6.927273e+000	7.272746e-002	6.414141e-003
3.054310719994828e-004	6.890879e+000	1.091209e-001	6.380443e-003
4.078310719994853e-004	6.854677e+000	1.453231e-001	6.346923e-003
5.102310719994759e-004	6.818665e+000	1.813351e-001	6.313579e-003
6.126310719994229e-004	6.782842e+000	2.171579e-001	6.280409e-003
7.150310719993699e-004	6.747207e+000	2.527925e-001	6.247414e-003
8.174310719993169e-004	6.711760e+000	2.882399e-001	6.214593e-003
9.198310719992638e-004	6.676499e+000	3.235011e-001	6.181943e-003
1.022231071999260e-003	6.641423e+000	3.585770e-001	6.149466e-003
1.124631071999318e-003	6.606531e+000	3.934686e-001	6.117159e-003
1.227031071999376e-003	6.571823e+000	4.281770e-001	6.085021e-003
1.329431071999434e-003	6.537297e+000	4.627030e-001	6.053053e-003
1.431831071999492e-003	6.502952e+000	4.970476e-001	6.021252e-003
1.534231071999550e-003	6.468788e+000	5.312118e-001	5.989619e-003
1.636631071999608e-003	6.434804e+000	5.651965e-001	5.958152e-003
1.739031071999666e-003	6.400997e+000	5.990026e-001	5.926849e-003
1.841431071999724e-003	6.367369e+000	6.326312e-001	5.895712e-003
1.943831071999782e-003	6.333917e+000	6.660830e-001	5.864738e-003
2.046231071999638e-003	6.300641e+000	6.993592e-001	5.833927e-003
2.148631071999474e-003	6.267540e+000	7.324604e-001	5.803277e-003
2.251031071999310e-003	6.234612e+000	7.653879e-001	5.772789e-003
2.353431071999146e-003	6.201858e+000	7.981423e-001	5.742461e-003
2.455831071998982e-003	6.169275e+000	8.307246e-001	5.712292e-003
2.558231071998818e-003	6.136864e+000	8.631358e-001	5.682282e-003
2.660631071998654e-003	6.104623e+000	8.953766e-001	5.652429e-003
2.763031071998490e-003	6.072552e+000	9.274482e-001	5.622733e-003
2.865431071998326e-003	6.040649e+000	9.593511e-001	5.593193e-003
2.967831071998162e-003	6.008913e+000	9.910865e-001	5.563809e-003
3.070231071997998e-003	5.977345e+000	1.022655e+000	5.534579e-003
3.172631071997834e-003	5.945942e+000	1.054058e+000	5.505502e-003
3.275031071997670e-003	5.914704e+000	1.085296e+000	5.476578e-003
3.377431071997506e-003	5.883630e+000	1.116370e+000	5.447806e-003
3.479831071997342e-003	5.852720e+000	1.147280e+000	5.419185e-003
3.582231071997178e-003	5.821972e+000	1.178028e+000	5.390715e-003
3.684631071997014e-003	5.791385e+000	1.208615e+000	5.362394e-003
3.787031071996850e-003	5.760959e+000	1.239041e+000	5.334222e-003
3.889431071996686e-003	5.730693e+000	1.269307e+000	5.306198e-003
3.991831071996892e-003	5.700586e+000	1.299414e+000	5.278321e-003
4.094231071997172e-003	5.670638e+000	1.329362e+000	5.250590e-003
4.196631071997452e-003	5.640846e+000	1.359154e+000	5.223006e-003
4.299031071997733e-003	5.611211e+000	1.388789e+000	5.195566e-003
4.401431071998013e-003	5.581732e+000	1.418268e+000	5.168270e-003
4.503831071998293e-003	5.552407e+000	1.447593e+000	5.141118e-003
4.606231071998573e-003	5.523237e+000	1.476763e+000	5.114108e-003
4.708631071998853e-003	5.494220e+000	1.505780e+000	5.087241e-003
4.811031071999133e-003	5.465355e+000	1.534645e+000	5.060514e-003
4.913431071999413e-003	5.436642e+000	1.563358e+000	5.033928e-003
5.015831071999693e-003	5.408080e+000	1.591920e+000	5.007482e-003
5.118231071999973e-003	5.379668e+000	1.620332e+000	4.981174e-003
5.220631072000253e-003	5.351405e+000	1.648595e+000	4.955005e-003
5.323031072000533e-003	5.323291e+000	1.676709e+000	4.928973e-003
5.425431072000813e-003	5.295324e+000	1.704676e+000	4.903078e-003
5.527831072001093e-003	5.267504e+000	1.732496e+000	4.877319e-003
5.630231072001373e-003	5.239831e+000	1.760169e+000	4.851695e-003
5.732631072001653e-003	5.212303e+000	1.787697e+000	4.826206e-003
5.835031072001933e-003	5.184919e+000	1.815081e+000	4.800851e-003
5.937431072002213e-003	5.157679e+000	1.842321e+000	4.775629e-003
6.039831072002493e-003	5.130583e+000	1.869417e+000	4.750540e-003
6.142231072002773e-003	5.103629e+000	1.896371e+000	4.725582e-003
6.244631072003053e-003	5.076816e+000	1.923184e+000	4.700755e-003
6.347031072003333e-003	5.050144e+000	1.949856e+000	4.676059e-003
6.449431072003613e-003	5.023612e+000	1.976388e+000	4.651493e-003
6.551831072003893e-003	4.997220e+000	2.002780e+000	4.627056e-003
6.654231072004174e-003	4.970967e+000	2.029033e+000	4.602747e-003
6.756631072004454e-003	4.944851e+000	2.055149e+000	4.578566e-003
6.859031072004734e-003	4.918872e+000	2.081128e+000	4.554512e-003
6.961431072005014e-003	4.893030e+000	2.106970e+000	4.530584e-003
7.063831072005294e-003	4.867324e+000	2.132676e+000	4.506782e-003
7.166231072005574e-003	4.841753e+000	2.158247e+000	4.483105e-003
7.268631072005854e-003	4.816316e+000	2.183684e+000	4.459552e-003
7.371031072006134e-003	4.791013e+000	2.208987e+000	4.436123e-003
7.473431072006414e-003	4.765843e+000	2.234157e+000	4.412817e-003
7.575831072006694e-003	4.740805e+000	2.259195e+000	4.389634e-003
7.678231072006974e-003	4.715898e+000	2.284102e+000	4.366572e-003
7.780631072007254e-003	4.691123e+000	2.308877e+000	4.343632e-003
7.883031072006922e-003	4.666477e+000	2.333523e+000	4.320812e-003
7.985431072006314e-003	4.641961e+000	2.358039e+000	4.298112e-003
8.087831072005705e-003	4.617574e+000	2.382426e+000	4.275532e-003
8.190231072005097e-003	4.593315e+000	2.406685e+000	4.253069e-003
8.292631072004489e-003	4.569183e+000	2.430817e+000	4.230725e-003
8.395031072003881e-003	4.545178e+000	2.454822e+000	4.208499e-003
8.497431072003273e-003	4.521300e+000	2.478700e+000	4.186389e-003
8.599831072002665e-003	4.497546e+000	2.502454e+000	4.164395e-003
8.702231072002057e-003	4.473918e+000	2.526082e+000	4.142517e-003
8.804631072001449e-003	4.450413e+000	2.549587e+000	4.120753e-003
8.907031072000840e-003	4.427033e+000	2.572967e+000	4.099105e-003
9.009431072000232e-003	4.403775e+000	2.596225e+000	4.077569e-003
9.111831071999624e-003	4.380639e+000	2.619361e+000	4.056147e-003
9.214231071999016e-003	4.357625e+000	2.642375e+000	4.034838e-003
9.316631071998408e-003	4.334731e+000	2.665269e+000	4.013640e-003
9.419031071997800e-003	4.311958e+000	2.688042e+000	3.992554e-003
9.521431071997192e-003	4.289304e+000	2.710696e+000	3.971578e-003
9.623831071996583e-003	4.266770e+000	2.733230e+000	3.950713e-003
9.726231071995975e-003	4.244354e+000	2.755646e+000	3.929957e-003
9.828631071995367e-003	4.222056e+000	2.777944e+000	3.909311e-003
9.931031071994759e-003	4.199874e+000	2.800126e+000	3.888773e-003
1.003343107199415e-002	4.177810e+000	2.822190e+000	3.868342e-003
1.013583107199354e-002	4.155861e+000	2.844139e+000	3.848020e-003
1.023823107199294e-002	4.134028e+000	2.865972e+000	3.827804e-003
1.034063107199233e-002	4.112309e+000	2.887691e+000	3.807693e-003
1.044303107199172e-002	4.090704e+000	2.909296e+000	3.787689e-003
1.054543107199111e-002	4.069213e+000	2.930787e+000	3.767790e-003
1.064783107199050e-002	4.047835e+000	2.952165e+000	3.747995e-003
1.075023107198989e-002	4.026569e+000	2.973431e+000	3.728305e-003
1.085263107198929e-002	4.005415e+000	2.994585e+000	3.708718e-003
1.095503107198868e-002	3.984372e+000	3.015628e+000	3.689233e-003
1.105743107198807e-002	3.963440e+000	3.036560e+000	3.669851e-003
1.115983107198746e-002	3.942617e+000	3.057383e+000	3.650571e-003
1.126223107198685e-002	3.921904e+000	3.078096e+000	3.631393e-003
1.136463107198625e-002	3.901300e+000	3.098700e+000	3.612315e-003
1.146703107198564e-002	3.880804e+000	3.119196e+000	3.593337e-003
1.156943107198503e-002	3.860415e+000	3.139585e+000	3.574459e-003
1.167183107198442e-002	3.840134e+000	3.159866e+000	3.555680e-003
1.177423107198381e-002	3.819960e+000	3.180040e+000	3.536999e-003
1.187663107198320e-002	3.799891e+000	3.200109e+000	3.518417e-003
1.197903107198260e-002	3.779927e+000	3.220073e+000	3.499933e-003
1.208143107198199e-002	3.760069e+000	3.239931e+000	3.481545e-003
1.218383107198138e-002	3.740315e+000	3.259685e+000	3.463255e-003
1.228623107198077e-002	3.720665e+000	3.279335e+000	3.445060e-003
1.238863107198016e-002	3.701118e+000	3.298882e+000	3.426961e-003
1.249103107197956e-002	3.681674e+000	3.318326e+000	3.408957e-003
1.259343107197895e-002	3.662331e+000	3.337669e+000	3.391047e-003
1.269583107197834e-002	3.643091e+000	3.356909e+000	3.373232e-003
1.279823107197773e-002	3.623951e+000	3.376049e+000	3.355510e-003
1.290063107197712e-002	3.604912e+000	3.395088e+000	3.337882e-003
1.300303107197652e-002	3.585973e+000	3.414027e+000	3.320346e-003
1.310543107197591e-002	3.567134e+000	3.432866e+000	3.302902e-003
1.320783107197530e-002	3.548393e+000	3.451607e+000	3.285550e-003
1.331023107197469e-002	3.529752e+000	3.470248e+000	3.268288e-003
1.341263107197408e-002	3.511208e+000	3.488792e+000	3.251118e-003
1.351503107197347e-002	3.492761e+000	3.507239e+000	3.234038e-003
1.361743107197287e-002	3.474411e+000	3.525589e+000	3.217047e-003
1.371983107197226e-002	3.456158e+000	3.543842e+000	3.200146e-003
1.382223107197165e-002	3.438000e+000	3.562000e+000	3.183334e-003
1.392463107197104e-002	3.419938e+000	3.580062e+000	3.166610e-003
1.402703107197043e-002	3.401971e+000	3.598029e+000	3.149973e-003
1.412943107196983e-002	3.384099e+000	3.615901e+000	3.133425e-003
1.423183107196922e-002	3.366320e+000	3.633680e+000	3.116963e-003
1.433423107196861e-002	3.348634e+000	3.651366e+000	3.100587e-003
1.443663107196800e-002	3.331042e+000	3.668958e+000	3.084298e-003
1.453903107196739e-002	3.313542e+000	3.686458e+000	3.068094e-003
1.464143107196679e-002	3.296134e+000	3.703866e+000	3.051976e-003
1.474383107196618e-002	3.278817e+000	3.721183e+000	3.035941e-003
1.484623107196557e-002	3.261591e+000	3.738409e+000	3.019992e-003
1.494863107196496e-002	3.244456e+000	3.755544e+000	3.004126e-003
1.505103107196435e-002	3.227411e+000	3.772589e+000	2.988343e-003
1.515343107196374e-002	3.210455e+000	3.789545e+000	2.972644e-003
1.525583107196314e-002	3.193588e+000	3.806412e+000	2.957026e-003
1.535823107196253e-002	3.176811e+000	3.823189e+000	2.941491e-003
1.546063107196192e-002	3.160121e+000	3.839879e+000	2.926038e-003
1.556303107196131e-002	3.143518e+000	3.856482e+000	2.910665e-003
1.566543107196071e-002	3.127004e+000	3.872996e+000	2.895374e-003
1.576783107196010e-002	3.110575e+000	3.889425e+000	2.880162e-003
1.587023107195949e-002	3.094234e+000	3.905766e+000	2.865031e-003
1.597263107195888e-002	3.077978e+000	3.922022e+000	2.849979e-003
1.607503107195827e-002	3.061807e+000	3.938193e+000	2.835006e-003
1.617743107195767e-002	3.045721e+000	3.954279e+000	2.820112e-003
1.627983107195706e-002	3.029720e+000	3.970280e+000	2.805297e-003
1.638223107195645e-002	3.013803e+000	3.986197e+000	2.790558e-003
1.648463107195584e-002	2.997970e+000	4.002030e+000	2.775898e-003
1.658703107195523e-002	2.982220e+000	4.017780e+000	2.761314e-003
1.668943107195462e-002	2.966552e+000	4.033448e+000	2.746807e-003
1.679183107195402e-002	2.950967e+000	4.049033e+000	2.732377e-003
1.689423107195341e-002	2.935463e+000	4.064537e+000	2.718022e-003
1.699663107195280e-002	2.920042e+000	4.079958e+000	2.703742e-003
1.709903107195219e-002	2.904701e+000	4.095299e+000	2.689538e-003
1.720143107195158e-002	2.889441e+000	4.110559e+000	2.675408e-003
1.730383107195098e-002	2.874260e+000	4.125740e+000	2.661352e-003
1.740623107195037e-002	2.859160e+000	4.140840e+000	2.647370e-003
1.750863107194976e-002	2.844139e+000	4.155861e+000	2.633462e-003
1.761103107194915e-002	2.829197e+000	4.170803e+000	2.619627e-003
1.771343107194854e-002	2.814333e+000	4.185667e+000	2.605864e-003
1.781583107194793e-002	2.799548e+000	4.200452e+000	2.592174e-003
1.791823107194733e-002	2.784840e+000	4.215160e+000	2.578556e-003
1.802063107194672e-002	2.770209e+000	4.229791e+000	2.565009e-003
1.812303107194611e-002	2.755656e+000	4.244344e+000	2.551533e-003
1.822543107194550e-002	2.741179e+000	4.258821e+000	2.538128e-003
1.832783107194489e-002	2.726778e+000	4.273222e+000	2.524794e-003
1.843023107194429e-002	2.712452e+000	4.287548e+000	2.511529e-003
1.853263107194368e-002	2.698202e+000	4.301798e+000	2.498335e-003
1.863503107194307e-002	2.684026e+000	4.315974e+000	2.485210e-003
1.873743107194246e-002	2.669925e+000	4.330075e+000	2.472153e-003
1.883983107194185e-002	2.655899e+000	4.344101e+000	2.459165e-003
1.894223107194125e-002	2.641945e+000	4.358055e+000	2.446246e-003
1.904463107194064e-002	2.628066e+000	4.371934e+000	2.433394e-003
1.914703107194003e-002	2.614259e+000	4.385741e+000	2.420610e-003
1.924943107193942e-002	2.600524e+000	4.399476e+000	2.407893e-003
1.935183107193881e-002	2.586862e+000	4.413138e+000	2.395243e-003
1.945423107193820e-002	2.573272e+000	4.426728e+000	2.382659e-003
1.955663107193760e-002	2.559752e+000	4.440248e+000	2.370141e-003
1.965903107193699e-002	2.546305e+000	4.453695e+000	2.357689e-003
1.976143107193638e-002	2.532927e+000	4.467073e+000	2.345303e-003
1.986383107193577e-002	2.519620e+000	4.480380e+000	2.332982e-003
1.996623107193516e-002	2.506383e+000	4.493617e+000	2.320725e-003
2.006863107193456e-002	2.493215e+000	4.506785e+000	2.308533e-003
2.017103107193395e-002	2.480117e+000	4.519883e+000	2.296404e-003
2.027343107193334e-002	2.467087e+000	4.532913e+000	2.284340e-003
2.037583107193273e-002	2.454126e+000	4.545874e+000	2.272339e-003
2.047823107193212e-002	2.441233e+000	4.558767e+000	2.260401e-003
2.058063107193152e-002	2.428408e+000	4.571592e+000	2.248526e-003
2.068303107193091e-002	2.415649e+000	4.584351e+000	2.236712e-003
2.078543107193030e-002	2.402958e+000	4.597042e+000	2.224962e-003
2.088783107192969e-002	2.390334e+000	4.609666e+000	2.213272e-003
2.099023107192908e-002	2.377776e+000	4.622224e+000	2.201645e-003
2.109263107192847e-002	2.365284e+000	4.634716e+000	2.190078e-003
2.119503107192787e-002	2.352858e+000	4.647142e+000	2.178572e-003
2.129743107192726e-002	2.340497e+000	4.659503e+000	2.167127e-003
2.139983107192665e-002	2.328201e+000	4.671799e+000	2.155741e-003
2.150223107192604e-002	2.315969e+000	4.684031e+000	2.144416e-003
2.160463107192543e-002	2.303802e+000	4.696198e+000	2.133150e-003
2.170703107192483e-002	2.291698e+000	4.708302e+000	2.121943e-003
2.180943107192422e-002	2.279659e+000	4.720341e+000	2.110795e-003
2.191183107192361e-002	2.267683e+000	4.732317e+000	2.099706e-003
2.201423107192300e-002	2.255769e+000	4.744231e+000	2.088675e-003
2.211663107192239e-002	2.243918e+000	4.756082e+000	2.077702e-003
2.221903107192179e-002	2.232129e+000	4.767871e+000	2.066786e-003
2.232143107192118e-002	2.220402e+000	4.779598e+000	2.055928e-003
2.242383107192057e-002	2.208737e+000	4.791263e+000	2.045127e-003
2.252623107191996e-002	2.197133e+000	4.802867e+000	2.034383e-003
2.262863107191935e-002	2.185590e+000	4.814410e+000	2.023695e-003
2.273103107191874e-002	2.174108e+000	4.825892e+000	2.013063e-003
2.283343107191814e-002	2.162686e+000	4.837314e+000	2.002487e-003
2.293583107191753e-002	2.151324e+000	4.848676e+000	1.991967e-003
2.303823107191692e-002	2.140022e+000	4.859978e+000	1.981501e-003
2.314063107191631e-002	2.128779e+000	4.871221e+000	1.971091e-003
2.324303107191570e-002	2.117595e+000	4.882405e+000	1.960736e-003
2.334543107191510e-002	2.106470e+000	4.893530e+000	1.950435e-003
2.344783107191449e-002	2.095403e+000	4.904597e+000	1.940188e-003
2.355023107191388e-002	2.084395e+000	4.915605e+000	1.929995e-003
2.365263107191327e-002	2.073444e+000	4.926556e+000	1.919856e-003
2.375503107191266e-002	2.062551e+000	4.937449e+000	1.909769e-003
2.385743107191206e-002	2.051715e+000	4.948285e+000	1.899736e-003
2.395983107191145e-002	2.040936e+000	4.959064e+000	1.889756e-003
2.406223107191084e-002	2.030214e+000	4.969786e+000	1.879827e-003
2.416463107191023e-002	2.019547e+000	4.980453e+000	1.869952e-003
2.426703107190962e-002	2.008938e+000	4.991062e+000	1.860128e-003
2.436943107190901e-002	1.998384e+000	5.001616e+000	1.850355e-003
2.447183107190841e-002	1.987885e+000	5.012115e+000	1.840634e-003
2.457423107190780e-002	1.977441e+000	5.022559e+000	1.830964e-003
2.467663107190719e-002	1.967052e+000	5.032948e+000	1.821345e-003
2.477903107190658e-002	1.956718e+000	5.043282e+000	1.811776e-003
2.488143107190597e-002	1.946438e+000	5.053562e+000	1.802258e-003
2.498383107190537e-002	1.936213e+000	5.063787e+000	1.792789e-003
2.508623107190476e-002	1.926040e+000	5.073960e+000	1.783371e-003
2.518863107190415e-002	1.915921e+000	5.084079e+000	1.774001e-003
2.529103107190354e-002	1.905856e+000	5.094144e+000	1.764681e-003
2.539343107190293e-002	1.895843e+000	5.104157e+000	1.755410e-003
2.549583107190232e-002	1.885883e+000	5.114117e+000	1.746188e-003
2.559823107190172e-002	1.875975e+000	5.124025e+000	1.737014e-003
2.570063107190111e-002	1.866120e+000	5.133880e+000	1.727889e-003
2.580303107190050e-002	1.856316e+000	5.143684e+000	1.718811e-003
2.590543107189989e-002	1.846563e+000	5.153437e+000	1.709781e-003
2.600783107189928e-002	1.836862e+000	5.163138e+000	1.700798e-003
2.611023107189868e-002	1.827212e+000	5.172788e+000	1.691863e-003
2.621263107189807e-002	1.817613e+000	5.182387e+000	1.682974e-003
2.631503107189746e-002	1.808064e+000	5.191936e+000	1.674133e-003
2.641743107189685e-002	1.798564e+000	5.201436e+000	1.665337e-003
2.651983107189624e-002	1.789115e+000	5.210885e+000	1.656588e-003
2.662223107189564e-002	1.779716e+000	5.220284e+000	1.647885e-003
2.672463107189503e-002	1.770366e+000	5.229634e+000	1.639228e-003
2.682703107189442e-002	1.761065e+000	5.238935e+000	1.630616e-003
2.692943107189381e-002	1.751813e+000	5.248187e+000	1.622049e-003
2.703183107189320e-002	1.742610e+000	5.257390e+000	1.613528e-003
2.713423107189259e-002	1.733455e+000	5.266545e+000	1.605051e-003
2.723663107189199e-002	1.724348e+000	5.275652e+000	1.596618e-003
2.733903107189138e-002	1.715289e+000	5.284711e+000	1.588230e-003
2.744143107189077e-002	1.706277e+000	5.293723e+000	1.579886e-003
2.754383107189016e-002	1.697313e+000	5.302687e+000	1.571586e-003
2.764623107188955e-002	1.688396e+000	5.311604e+000	1.563330e-003
2.774863107188895e-002	1.679526e+000	5.320474e+000	1.555116e-003
2.785103107188834e-002	1.670702e+000	5.329298e+000	1.546946e-003
2.795343107188773e-002	1.661925e+000	5.338075e+000	1.538819e-003
2.805583107188712e-002	1.653193e+000	5.346807e+000	1.530735e-003
2.815823107188651e-002	1.644508e+000	5.355492e+000	1.522693e-003
2.826063107188591e-002	1.635869e+000	5.364131e+000	1.514693e-003
2.836303107188530e-002	1.627275e+000	5.372725e+000	1.506736e-003
2.846543107188469e-002	1.618725e+000	5.381275e+000	1.498820e-003
2.856783107188408e-002	1.610221e+000	5.389779e+000	1.490945e-003
2.867023107188347e-002	1.601762e+000	5.398238e+000	1.483113e-003
2.877263107188286e-002	1.593347e+000	5.406653e+000	1.475321e-003
2.887503107188226e-002	1.584976e+000	5.415024e+000	1.467570e-003
2.897743107188165e-002	1.576649e+000	5.423351e+000	1.459860e-003
2.907983107188104e-002	1.568366e+000	5.431634e+000	1.452190e-003
2.918223107188043e-002	1.560126e+000	5.439874e+000	1.444561e-003
2.928463107187982e-002	1.551929e+000	5.448071e+000	1.436972e-003
2.938703107187922e-002	1.543777e+000	5.456223e+000	1.429423e-003
2.948943107187861e-002	1.535666e+000	5.464334e+000	1.421913e-003
2.959183107187800e-002	1.527598e+000	5.472402e+000	1.414443e-003
2.969423107187739e-002	1.519573e+000	5.480427e+000	1.407012e-003
2.979663107187678e-002	1.511590e+000	5.488410e+000	1.399620e-003
2.989903107187618e-002	1.503648e+000	5.496352e+000	1.392267e-003
3.000143107187557e-002	1.495749e+000	5.504251e+000	1.384952e-003
3.010383107187496e-002	1.487890e+000	5.512110e+000	1.377676e-003
3.020623107187435e-002	1.480073e+000	5.519927e+000	1.370438e-003
3.030863107187374e-002	1.472298e+000	5.527702e+000	1.363239e-003
3.041103107187313e-002	1.464563e+000	5.535437e+000	1.356077e-003
3.051343107187253e-002	1.456869e+000	5.543131e+000	1.348952e-003
3.061583107187192e-002	1.449214e+000	5.550786e+000	1.341865e-003
